Circuit: * C:\Users\Lionheart\Desktop\TL2 Circuitos Electrónicos I\Simulaciones\Monoetapa\JFETN\JFETN.asc

Direct Newton iteration for .op point succeeded.
Semiconductor Device Operating Points:
                        --- JFET Transistors ---
Name:      j1
Model:   j2n5486
Id:      4.07e-03
Vgs:    -6.08e-01
Vds:     6.02e+00
Gm:      5.87e-03
Gds:     3.66e-05
Cgs:     2.03e-12
Cgd:     7.67e-13



Date: Sun May 01 19:11:32 2022
Total elapsed time: 0.025 seconds.

tnom = 27
temp = 27
method = trap
totiter = 21
traniter = 0
tranpoints = 0
accept = 0
rejected = 0
matrix size = 10
fillins = 0
solver = Normal
Matrix Compiler1: 444 bytes object code size
Matrix Compiler2: 740 bytes object code size
