Circuit: * C:\Users\Lionheart\Documents\GitHub\Circuitos-I-TPs\TL2\Simulaciones\Monoetapa\JFETN\JFETN.asc

Warning: Multiple definitions of model "2n5486" Type: JFET
Direct Newton iteration for .op point succeeded.
Semiconductor Device Operating Points:
                        --- JFET Transistors ---
Name:      j1
Model:   2n5486
Id:      5.08e-03
Vgs:    -4.32e-01
Vds:     1.05e+01
Gm:      6.70e-03
Gds:     4.60e-05
Cgs:     3.28e-12
Cgd:     1.16e-12



Date: Mon May 16 23:30:48 2022
Total elapsed time: 0.017 seconds.

tnom = 27
temp = 27
method = trap
totiter = 8
traniter = 0
tranpoints = 0
accept = 0
rejected = 0
matrix size = 11
fillins = 0
solver = Normal
Matrix Compiler1:      29 opcodes
Matrix Compiler2: 813 bytes object code size
