Circuit: * C:\Users\Lionheart\Desktop\TL2 Circuitos Electrónicos I\Simulaciones\NTBJ\NPN.asc

Warning: Multiple definitions of model "2scr375p" Type: BJT
Warning: Multiple definitions of model "bc857b" Type: BJT
Warning: Multiple definitions of model "bc847c" Type: BJT
Warning: Multiple definitions of model "bc847b" Type: BJT
Direct Newton iteration for .op point succeeded.
Semiconductor Device Operating Points:
                        --- Bipolar Transistors ---
Name:       q1
Model:    bc548b
Ib:       1.66e-05
Ic:       3.91e-03
Vbe:      7.03e-01
Vbc:      4.60e-01
Vce:      2.43e-01
BetaDC:   2.36e+02
Gm:       1.45e-01
Rpi:      1.67e+03
Rx:       1.50e+02
Ro:       1.30e+04
Cbe:      1.00e-10
Cbc:      7.95e-12
Cjs:      0.00e+00
BetaAC:   2.42e+02
Cbx:      0.00e+00
Ft:       2.14e+08



Date: Sun May 01 18:47:11 2022
Total elapsed time: 0.023 seconds.

tnom = 27
temp = 27
method = trap
totiter = 11
traniter = 0
tranpoints = 0
accept = 0
rejected = 0
matrix size = 10
fillins = 0
solver = Normal
Matrix Compiler1:      30 opcodes
Matrix Compiler2: 774 bytes object code size
