Circuit: * C:\Users\Lionheart\Documents\GitHub\Circuitos-I-TPs\TL2\Simulaciones\Multietapa\JFETN\LTSPICE\JFETN.asc

Direct Newton iteration for .op point succeeded.
Semiconductor Device Operating Points:
                        --- JFET Transistors ---
Name:      j2          j1
Model:   j2n5486     j2n5486
Id:      1.04e-02    3.65e-03
Vgs:    -1.22e+00   -3.43e+00
Vds:     2.77e+00    1.43e+01
Gm:      3.05e-03    2.85e-03
Gds:     2.25e-03    0.00e+00
Cgs:     1.81e-12    1.41e-12
Cgd:     8.95e-13    5.53e-13



Date: Sun May 29 23:32:36 2022
Total elapsed time: 0.015 seconds.

tnom = 27
temp = 27
method = trap
totiter = 11
traniter = 0
tranpoints = 0
accept = 0
rejected = 0
matrix size = 14
fillins = 0
solver = Normal
Matrix Compiler1: 742 bytes object code size
Matrix Compiler2: 1.07 KB object code size
