Circuit: * C:\Users\david\Desktop\Circuitos-I-TPs-main\Circuitos-I-TPs-main\TL2\Simulaciones\Multietapa\JFETN\LTSPICE\JFETN.asc

Direct Newton iteration for .op point succeeded.
Semiconductor Device Operating Points:
                        --- JFET Transistors ---
Name:      j2          j1
Model:   j2n5486     j2n5486
Id:      1.05e-02    3.77e-03
Vgs:    -1.15e+00   -3.55e+00
Vds:     2.62e+00    1.42e+01
Gm:      2.95e-03    3.08e-03
Gds:     2.65e-03    3.15e-05
Cgs:     1.83e-12    1.39e-12
Cgd:     9.10e-13    5.53e-13



Date: Fri May 27 14:16:48 2022
Total elapsed time: 0.072 seconds.

tnom = 27
temp = 27
method = trap
totiter = 11
traniter = 0
tranpoints = 0
accept = 0
rejected = 0
matrix size = 14
fillins = 0
solver = Normal
Matrix Compiler1: 742 bytes object code size
Matrix Compiler2: 1.07 KB object code size
