Circuit: * C:\Users\david\Desktop\Circuitos-I-TPs-main\Circuitos-I-TPs-main\TL2\Simulaciones\Multietapa\JFETN\LTSPICE\JFETN.asc

Direct Newton iteration for .op point succeeded.
Semiconductor Device Operating Points:
                        --- JFET Transistors ---
Name:      j2          j1
Model:   j2n5486     j2n5486
Id:      7.85e-03    2.60e-03
Vgs:    -1.09e+00   -2.39e+00
Vds:     6.46e+00    1.54e+01
Gm:      5.40e-03    3.23e-03
Gds:     7.02e-05    2.16e-05
Cgs:     1.85e-12    1.55e-12
Cgd:     7.36e-13    5.53e-13



Date: Fri May 27 14:15:58 2022
Total elapsed time: 0.072 seconds.

tnom = 27
temp = 27
method = trap
totiter = 8
traniter = 0
tranpoints = 0
accept = 0
rejected = 0
matrix size = 14
fillins = 0
solver = Normal
Matrix Compiler1: 742 bytes object code size
Matrix Compiler2: 1.07 KB object code size
