Circuit: * C:\Users\Lionheart\Documents\GitHub\Circuitos-I-TPs\TL2\Simulaciones\Multietapa\JFETN\LTSPICE\JFETN.asc

Direct Newton iteration for .op point succeeded.
Semiconductor Device Operating Points:
                        --- JFET Transistors ---
Name:      j2          j1
Model:   j2n5486     j2n5486
Id:      4.32e-03    1.43e-03
Vgs:    -6.01e-01   -1.21e+00
Vds:     1.16e+01    1.66e+01
Gm:      6.20e-03    3.64e-03
Gds:     3.70e-05    1.17e-05
Cgs:     1.19e-11    1.06e-11
Cgd:     2.28e-11    2.00e-11



Date: Thu May 26 18:54:03 2022
Total elapsed time: 0.020 seconds.

tnom = 27
temp = 27
method = trap
totiter = 12
traniter = 0
tranpoints = 0
accept = 0
rejected = 0
matrix size = 14
fillins = 0
solver = Normal
Matrix Compiler1: 742 bytes object code size
Matrix Compiler2: 1.07 KB object code size
