Circuit: * C:\Users\Lionheart\Documents\GitHub\Circuitos-I-TPs\TL2\Simulaciones\Multietapa\JFETN\LTSPICE\JFETN.asc

Direct Newton iteration for .op point succeeded.
Semiconductor Device Operating Points:
                        --- JFET Transistors ---
Name:      j2          j1
Model:   j2n5486     j2n5486
Id:      4.15e-03    1.36e-03
Vgs:    -5.94e-01   -1.21e+00
Vds:     5.90e+00    1.06e+01
Gm:      5.92e-03    3.46e-03
Gds:     3.74e-05    1.17e-05
Cgs:     1.19e-11    1.06e-11
Cgd:     2.80e-11    2.30e-11



Date: Sun May 22 21:24:05 2022
Total elapsed time: 0.017 seconds.

tnom = 27
temp = 27
method = trap
totiter = 12
traniter = 0
tranpoints = 0
accept = 0
rejected = 0
matrix size = 14
fillins = 0
solver = Normal
Matrix Compiler1:      43 opcodes
Matrix Compiler2: 1.07 KB object code size
