Circuit: * C:\Users\Lionheart\Desktop\TL2 Circuitos Electrónicos I\Simulaciones\Multietapa\JFETN\JFETN.asc

Direct Newton iteration for .op point succeeded.
Semiconductor Device Operating Points:
                        --- JFET Transistors ---
Name:      j2          j1
Model:   j2n5486     j2n5486
Id:      4.15e-03    1.36e-03
Vgs:    -5.94e-01   -1.21e+00
Vds:     5.90e+00    1.06e+01
Gm:      5.92e-03    3.46e-03
Gds:     3.74e-05    1.17e-05
Cgs:     2.04e-12    1.81e-12
Cgd:     7.72e-13    6.34e-13



Date: Mon May 02 00:06:24 2022
Total elapsed time: 0.019 seconds.

tnom = 27
temp = 27
method = trap
totiter = 12
traniter = 0
tranpoints = 0
accept = 0
rejected = 0
matrix size = 13
fillins = 0
solver = Normal
Matrix Compiler1:      40 opcodes
Matrix Compiler2: 1.00 KB object code size
