Circuit: * C:\Users\Lionheart\Documents\GitHub\Circuitos-I-TPs\TL2\Simulaciones\Monoetapa\JFETN\LTSPICE\JFETN.asc

Direct Newton iteration for .op point succeeded.
Semiconductor Device Operating Points:
                        --- JFET Transistors ---
Name:      j1
Model:   j2n5486
Id:      8.69e-03
Vgs:    -2.13e+00
Vds:     5.22e+00
Gm:      4.50e-03
Gds:     7.87e-05
Cgs:     1.60e-12
Cgd:     7.42e-13



Date: Thu May 26 17:57:29 2022
Total elapsed time: 0.019 seconds.

tnom = 27
temp = 27
method = trap
totiter = 6
traniter = 0
tranpoints = 0
accept = 0
rejected = 0
matrix size = 11
fillins = 0
solver = Normal
Matrix Compiler1: 494 bytes object code size
Matrix Compiler2: 813 bytes object code size
