Circuit: * C:\Users\Lionheart\Documents\GitHub\Circuitos-I-TPs\TL2\Simulaciones\Monoetapa\JFETN\LTSPICE\JFETN.asc

Direct Newton iteration for .op point succeeded.
Semiconductor Device Operating Points:
                        --- JFET Transistors ---
Name:      j1
Model:   j2n5486
Id:      6.90e-03
Vgs:    -1.28e+00
Vds:     7.86e+00
Gm:      5.09e-03
Gds:     6.10e-05
Cgs:     1.05e-11
Cgd:     2.51e-11



Date: Sun May 22 19:40:54 2022
Total elapsed time: 0.016 seconds.

tnom = 27
temp = 27
method = trap
totiter = 7
traniter = 0
tranpoints = 0
accept = 0
rejected = 0
matrix size = 11
fillins = 0
solver = Normal
Matrix Compiler1:      29 opcodes
Matrix Compiler2: 813 bytes object code size
