Circuit: * C:\Users\Lionheart\Documents\GitHub\Circuitos-I-TPs\TL2\Simulaciones\Monoetapa\JFETN\LTSPICE\JFETN.asc

Direct Newton iteration for .op point succeeded.
Semiconductor Device Operating Points:
                        --- JFET Transistors ---
Name:      j1
Model:   j2n5486
Id:      6.55e-03
Vgs:    -1.12e+00
Vds:     8.37e+00
Gm:      4.57e-03
Gds:     5.77e-05
Cgs:     1.84e-12
Cgd:     6.83e-13



Date: Tue May 24 22:14:26 2022
Total elapsed time: 0.021 seconds.

tnom = 27
temp = 27
method = trap
totiter = 6
traniter = 0
tranpoints = 0
accept = 0
rejected = 0
matrix size = 11
fillins = 0
solver = Normal
Matrix Compiler1:      29 opcodes
Matrix Compiler2: 813 bytes object code size
