Circuit: * C:\Users\Lionheart\Documents\GitHub\Circuitos-I-TPs\TL2\Simulaciones\Monoetapa\JFETN\LTSPICE\JFETN.asc

Direct Newton iteration for .op point succeeded.
Semiconductor Device Operating Points:
                        --- JFET Transistors ---
Name:      j1
Model:   j2n5486
Id:      5.15e-03
Vgs:    -4.64e-01
Vds:     1.04e+01
Gm:      6.73e-03
Gds:     4.45e-05
Cgs:     2.10e-12
Cgd:     6.53e-13



Date: Thu May 26 23:12:46 2022
Total elapsed time: 0.016 seconds.

tnom = 27
temp = 27
method = trap
totiter = 8
traniter = 0
tranpoints = 0
accept = 0
rejected = 0
matrix size = 9
fillins = 0
solver = Normal
Matrix Compiler1:      24 opcodes
Matrix Compiler2: 661 bytes object code size
