Circuit: * C:\Users\Lionheart\Documents\GitHub\Circuitos-I-TPs\Ejercicios\Ejercicio C-28\JFETP.asc

Direct Newton iteration for .op point succeeded.
Semiconductor Device Operating Points:
                        --- JFET Transistors ---
Name:      j1
Model:    jfetp
Id:     -1.73e-03
Vgs:     9.69e-01
Vds:    -5.90e+00
Gm:      1.37e-03
Gds:     9.84e-06
Cgs:     2.00e-11
Cgd:     1.07e-12



Date: Thu May 19 16:33:15 2022
Total elapsed time: 0.020 seconds.

tnom = 27
temp = 27
method = trap
totiter = 6
traniter = 0
tranpoints = 0
accept = 0
rejected = 0
matrix size = 8
fillins = 0
solver = Normal
Matrix Compiler1: 246 bytes object code size
Matrix Compiler2: 526 bytes object code size
