Circuit: * C:\Users\Lionheart\Desktop\TL2 Circuitos Electrónicos I\Simulaciones\Multietapa\NTBJ\NPN.asc

Warning: Multiple definitions of model "2scr375p" Type: BJT
Warning: Multiple definitions of model "bc857b" Type: BJT
Warning: Multiple definitions of model "bc847c" Type: BJT
Warning: Multiple definitions of model "bc847b" Type: BJT
Direct Newton iteration for .op point succeeded.
Semiconductor Device Operating Points:
                        --- Bipolar Transistors ---
Name:       q1
Model:    bc548b
Ib:       3.44e-05
Ic:       9.15e-03
Vbe:      7.26e-01
Vbc:     -6.96e+00
Vce:      7.68e+00
BetaDC:   2.66e+02
Gm:       3.26e-01
Rpi:      7.79e+02
Rx:       1.50e+02
Ro:       7.62e+03
Cbe:      1.75e-10
Cbc:      2.33e-12
Cjs:      0.00e+00
BetaAC:   2.54e+02
Cbx:      0.00e+00
Ft:       2.91e+08



Date: Sun May 01 19:19:29 2022
Total elapsed time: 0.021 seconds.

tnom = 27
temp = 27
method = trap
totiter = 4
traniter = 0
tranpoints = 0
accept = 0
rejected = 0
matrix size = 8
fillins = 0
solver = Normal
Matrix Compiler1: 424 bytes object code size
Matrix Compiler2: 628 bytes object code size
