Circuit: * C:\Users\david\Desktop\Carga Activa\NPN.asc

Warning: Multiple definitions of model "2scr375p" Type: BJT
Warning: Multiple definitions of model "bc857b" Type: BJT
Warning: Multiple definitions of model "bc847c" Type: BJT
Warning: Multiple definitions of model "bc847b" Type: BJT
Direct Newton iteration for .op point succeeded.
Semiconductor Device Operating Points:
                        --- Bipolar Transistors ---
Name:       q2          q1
Model:    tbj_pnp     bc548b
Ib:      -3.24e-06    3.10e-06
Ic:      -1.00e-03    1.00e-03
Vbe:     -6.54e-01    6.56e-01
Vbc:      3.22e+00   -2.68e+01
Vce:     -3.87e+00    2.75e+01
BetaDC:   3.10e+02    3.24e+02
Gm:       3.88e-02    3.85e-02
Rpi:      7.97e+03    9.04e+03
Rx:       0.00e+00    1.50e+02
Ro:       1.03e+05    8.92e+04
Cbe:      0.00e+00    4.74e-11
Cbc:      0.00e+00    1.55e-12
Cjs:      0.00e+00    0.00e+00
BetaAC:   3.10e+02    3.48e+02
Cbx:      0.00e+00    0.00e+00
Ft:       0.00e+00    1.25e+08



Date: Wed May 04 17:07:20 2022
Total elapsed time: 0.088 seconds.

tnom = 27
temp = 27
method = trap
totiter = 8
traniter = 0
tranpoints = 0
accept = 0
rejected = 0
matrix size = 13
fillins = 2
solver = Normal
Matrix Compiler1: 914 bytes object code size
Matrix Compiler2: 1.07 KB object code size
